! 02K1AM-S00S3 (404161)
!
! Rosenberger Hochfrequenztechnik GmbH & Co. KG
! Hauptstr. 1, D-83413 Fridolfing, Germany
!
! 
! Port 1   ----|   RPC2.92   |     HFM     |---- Port 2
! 
# HZ S DB R 50
10000000	-7.405188e+001	5.760753e+001	-1.922981e-003	-5.601885e-001	-1.922981e-003	-5.601885e-001	-6.604643e+001	6.076507e+001
20000000	-6.808980e+001	4.813505e+001	-2.958211e-003	-1.108620e+000	-2.958211e-003	-1.108620e+000	-6.227826e+001	6.087179e+001
30000000	-6.600154e+001	5.156066e+001	-4.141626e-003	-1.656366e+000	-4.141626e-003	-1.656366e+000	-5.910778e+001	5.491369e+001
40000000	-6.278699e+001	5.124896e+001	-4.372189e-003	-2.207364e+000	-4.372189e-003	-2.207364e+000	-5.859156e+001	4.957194e+001
50000000	-6.125732e+001	6.230067e+001	-5.353008e-003	-2.756606e+000	-5.353008e-003	-2.756606e+000	-5.738803e+001	5.514936e+001
60000000	-5.997876e+001	6.333192e+001	-5.807342e-003	-3.298438e+000	-5.807342e-003	-3.298438e+000	-5.567683e+001	5.075592e+001
70000000	-6.027868e+001	7.272023e+001	-6.518365e-003	-3.844925e+000	-6.518365e-003	-3.844925e+000	-5.570531e+001	4.577668e+001
80000000	-5.919243e+001	5.274907e+001	-7.539218e-003	-4.390580e+000	-7.539218e-003	-4.390580e+000	-5.522445e+001	5.140985e+001
90000000	-5.718885e+001	6.331960e+001	-8.107186e-003	-4.936665e+000	-8.107186e-003	-4.936665e+000	-5.411274e+001	4.826761e+001
100000000	-5.739486e+001	6.207211e+001	-8.673879e-003	-5.475909e+000	-8.673879e-003	-5.475909e+000	-5.400699e+001	4.842589e+001
110000000	-5.635026e+001	6.217756e+001	-9.740871e-003	-6.021072e+000	-9.740871e-003	-6.021072e+000	-5.325139e+001	4.765376e+001
120000000	-5.618993e+001	5.809180e+001	-1.036975e-002	-6.563541e+000	-1.036975e-002	-6.563541e+000	-5.302865e+001	4.849455e+001
130000000	-5.515937e+001	6.027575e+001	-1.060791e-002	-7.102343e+000	-1.060791e-002	-7.102343e+000	-5.205253e+001	4.612846e+001
140000000	-5.446735e+001	5.715534e+001	-1.170753e-002	-7.647047e+000	-1.170753e-002	-7.647047e+000	-5.238749e+001	4.385317e+001
150000000	-5.357202e+001	6.044492e+001	-1.278660e-002	-8.190464e+000	-1.278660e-002	-8.190464e+000	-5.169014e+001	4.532167e+001
160000000	-5.389627e+001	6.062775e+001	-1.294985e-002	-8.731285e+000	-1.294985e-002	-8.731285e+000	-5.198184e+001	4.215448e+001
170000000	-5.315265e+001	6.172228e+001	-1.361601e-002	-9.272957e+000	-1.361601e-002	-9.272957e+000	-5.150596e+001	4.765085e+001
180000000	-5.350691e+001	5.934716e+001	-1.465403e-002	-9.815393e+000	-1.465403e-002	-9.815393e+000	-5.092312e+001	4.414941e+001
190000000	-5.292494e+001	5.771976e+001	-1.485304e-002	-1.035683e+001	-1.485304e-002	-1.035683e+001	-5.075468e+001	4.451208e+001
200000000	-5.284670e+001	5.701836e+001	-1.492212e-002	-1.089853e+001	-1.492212e-002	-1.089853e+001	-5.067116e+001	4.234011e+001
210000000	-5.195782e+001	5.639760e+001	-1.555760e-002	-1.144211e+001	-1.555760e-002	-1.144211e+001	-5.048364e+001	4.624032e+001
220000000	-5.210493e+001	5.757060e+001	-1.543550e-002	-1.198292e+001	-1.543550e-002	-1.198292e+001	-4.964799e+001	4.335806e+001
230000000	-5.119824e+001	5.625563e+001	-1.588231e-002	-1.252277e+001	-1.588231e-002	-1.252277e+001	-4.984592e+001	4.102776e+001
240000000	-5.121776e+001	5.767316e+001	-1.647812e-002	-1.306603e+001	-1.647812e-002	-1.306603e+001	-4.976990e+001	4.211854e+001
250000000	-5.039870e+001	5.558112e+001	-1.690703e-002	-1.360908e+001	-1.690703e-002	-1.360908e+001	-4.942158e+001	4.238098e+001
260000000	-5.031298e+001	6.015974e+001	-1.789747e-002	-1.415122e+001	-1.789747e-002	-1.415122e+001	-4.930425e+001	4.106252e+001
270000000	-5.067371e+001	5.648037e+001	-1.843047e-002	-1.469153e+001	-1.843047e-002	-1.469153e+001	-4.905462e+001	4.238497e+001
280000000	-5.038955e+001	5.605594e+001	-1.808993e-002	-1.523242e+001	-1.808993e-002	-1.523242e+001	-4.874297e+001	4.013217e+001
290000000	-4.978122e+001	5.415229e+001	-1.852671e-002	-1.577433e+001	-1.852671e-002	-1.577433e+001	-4.872838e+001	4.062891e+001
300000000	-4.942148e+001	5.650895e+001	-1.922024e-002	-1.631449e+001	-1.922024e-002	-1.631449e+001	-4.841820e+001	3.922659e+001
310000000	-4.946075e+001	5.631531e+001	-1.946054e-002	-1.685680e+001	-1.946054e-002	-1.685680e+001	-4.844323e+001	3.929813e+001
320000000	-4.957826e+001	5.728387e+001	-1.934440e-002	-1.739566e+001	-1.934440e-002	-1.739566e+001	-4.819923e+001	3.876628e+001
330000000	-4.922241e+001	5.210787e+001	-2.023815e-002	-1.793951e+001	-2.023815e-002	-1.793951e+001	-4.802750e+001	3.935206e+001
340000000	-4.884201e+001	5.367086e+001	-2.094756e-002	-1.848140e+001	-2.094756e-002	-1.848140e+001	-4.763306e+001	3.669606e+001
350000000	-4.882375e+001	5.031783e+001	-2.094422e-002	-1.902494e+001	-2.094422e-002	-1.902494e+001	-4.795148e+001	3.572083e+001
360000000	-4.810082e+001	5.275679e+001	-2.117672e-002	-1.956309e+001	-2.117672e-002	-1.956309e+001	-4.777815e+001	3.644520e+001
370000000	-4.840156e+001	5.211732e+001	-2.131353e-002	-2.010529e+001	-2.131353e-002	-2.010529e+001	-4.774612e+001	3.683222e+001
380000000	-4.776725e+001	5.081157e+001	-2.228464e-002	-2.064711e+001	-2.228464e-002	-2.064711e+001	-4.732044e+001	3.651253e+001
390000000	-4.792060e+001	5.018880e+001	-2.253702e-002	-2.119082e+001	-2.253702e-002	-2.119082e+001	-4.732732e+001	3.441688e+001
400000000	-4.719583e+001	4.931401e+001	-2.303198e-002	-2.173327e+001	-2.303198e-002	-2.173327e+001	-4.740900e+001	3.424975e+001
410000000	-4.734864e+001	5.104605e+001	-2.361061e-002	-2.227644e+001	-2.361061e-002	-2.227644e+001	-4.738867e+001	3.625415e+001
420000000	-4.707231e+001	4.903932e+001	-2.357366e-002	-2.281120e+001	-2.357366e-002	-2.281120e+001	-4.672543e+001	3.569476e+001
430000000	-4.684380e+001	5.048531e+001	-2.430697e-002	-2.335314e+001	-2.430697e-002	-2.335314e+001	-4.680156e+001	3.209315e+001
440000000	-4.684055e+001	4.815861e+001	-2.528015e-002	-2.389464e+001	-2.528015e-002	-2.389464e+001	-4.695233e+001	3.292720e+001
450000000	-4.642806e+001	4.859592e+001	-2.556234e-002	-2.443942e+001	-2.556234e-002	-2.443942e+001	-4.674724e+001	3.331481e+001
460000000	-4.663094e+001	5.009803e+001	-2.615412e-002	-2.498179e+001	-2.615412e-002	-2.498179e+001	-4.650885e+001	3.218969e+001
470000000	-4.669207e+001	4.660000e+001	-2.664730e-002	-2.552220e+001	-2.664730e-002	-2.552220e+001	-4.651580e+001	3.075585e+001
480000000	-4.641970e+001	4.658658e+001	-2.710759e-002	-2.606467e+001	-2.710759e-002	-2.606467e+001	-4.656363e+001	3.001702e+001
490000000	-4.636054e+001	4.392316e+001	-2.763537e-002	-2.660565e+001	-2.763537e-002	-2.660565e+001	-4.662112e+001	3.087284e+001
500000000	-4.598808e+001	4.531258e+001	-2.810115e-002	-2.714120e+001	-2.810115e-002	-2.714120e+001	-4.631202e+001	3.019058e+001
510000000	-4.635751e+001	4.189121e+001	-2.889475e-002	-2.768510e+001	-2.889475e-002	-2.768510e+001	-4.649241e+001	2.934656e+001
520000000	-4.553913e+001	4.055757e+001	-2.906415e-002	-2.822306e+001	-2.906415e-002	-2.822306e+001	-4.624292e+001	3.000558e+001
530000000	-4.563180e+001	4.116774e+001	-3.004089e-002	-2.876669e+001	-3.004089e-002	-2.876669e+001	-4.629167e+001	2.845405e+001
540000000	-4.517551e+001	3.883270e+001	-3.066876e-002	-2.930229e+001	-3.066876e-002	-2.930229e+001	-4.615558e+001	2.898204e+001
550000000	-4.511079e+001	4.125028e+001	-3.053299e-002	-2.984321e+001	-3.053299e-002	-2.984321e+001	-4.623646e+001	2.730455e+001
560000000	-4.496164e+001	3.961433e+001	-3.140916e-002	-3.037854e+001	-3.140916e-002	-3.037854e+001	-4.618988e+001	2.891797e+001
570000000	-4.480159e+001	4.001798e+001	-3.225680e-002	-3.092061e+001	-3.225680e-002	-3.092061e+001	-4.605378e+001	2.717173e+001
580000000	-4.486166e+001	3.982760e+001	-3.280576e-002	-3.146370e+001	-3.280576e-002	-3.146370e+001	-4.616941e+001	2.849052e+001
590000000	-4.491022e+001	3.896025e+001	-3.238490e-002	-3.200202e+001	-3.238490e-002	-3.200202e+001	-4.580169e+001	2.763508e+001
600000000	-4.460238e+001	3.941349e+001	-3.246043e-002	-3.254126e+001	-3.246043e-002	-3.254126e+001	-4.602144e+001	2.661070e+001
610000000	-4.476845e+001	3.931819e+001	-3.318386e-002	-3.308170e+001	-3.318386e-002	-3.308170e+001	-4.579234e+001	2.832159e+001
620000000	-4.470580e+001	3.856947e+001	-3.341259e-002	-3.362032e+001	-3.341259e-002	-3.362032e+001	-4.551928e+001	2.558775e+001
630000000	-4.494163e+001	3.639821e+001	-3.409890e-002	-3.415779e+001	-3.409890e-002	-3.415779e+001	-4.590473e+001	2.447598e+001
640000000	-4.443152e+001	3.359958e+001	-3.463548e-002	-3.470223e+001	-3.463548e-002	-3.470223e+001	-4.589105e+001	2.663363e+001
650000000	-4.442599e+001	3.524762e+001	-3.444775e-002	-3.523962e+001	-3.444775e-002	-3.523962e+001	-4.565063e+001	2.649673e+001
660000000	-4.428540e+001	3.321910e+001	-3.503143e-002	-3.577975e+001	-3.503143e-002	-3.577975e+001	-4.556849e+001	2.612012e+001
670000000	-4.424752e+001	3.303279e+001	-3.509614e-002	-3.631797e+001	-3.509614e-002	-3.631797e+001	-4.537762e+001	2.601112e+001
680000000	-4.389297e+001	3.093397e+001	-3.581286e-002	-3.685501e+001	-3.581286e-002	-3.685501e+001	-4.522910e+001	2.386602e+001
690000000	-4.373996e+001	3.219365e+001	-3.612899e-002	-3.739771e+001	-3.612899e-002	-3.739771e+001	-4.550050e+001	2.311805e+001
700000000	-4.369775e+001	3.172711e+001	-3.619467e-002	-3.793966e+001	-3.619467e-002	-3.793966e+001	-4.543405e+001	2.382101e+001
710000000	-4.367137e+001	3.220532e+001	-3.616012e-002	-3.847790e+001	-3.616012e-002	-3.847790e+001	-4.552073e+001	2.362724e+001
720000000	-4.360516e+001	3.140371e+001	-3.624330e-002	-3.901770e+001	-3.624330e-002	-3.901770e+001	-4.531043e+001	2.503956e+001
730000000	-4.352514e+001	3.102774e+001	-3.696994e-002	-3.955740e+001	-3.696994e-002	-3.955740e+001	-4.511412e+001	2.338561e+001
740000000	-4.349022e+001	3.047619e+001	-3.689343e-002	-4.009752e+001	-3.689343e-002	-4.009752e+001	-4.517499e+001	2.300198e+001
750000000	-4.343111e+001	2.967329e+001	-3.743173e-002	-4.063878e+001	-3.743173e-002	-4.063878e+001	-4.515234e+001	2.312298e+001
760000000	-4.323827e+001	2.883099e+001	-3.767413e-002	-4.117684e+001	-3.767413e-002	-4.117684e+001	-4.491843e+001	2.380625e+001
770000000	-4.317487e+001	2.971944e+001	-3.804789e-002	-4.171715e+001	-3.804789e-002	-4.171715e+001	-4.461475e+001	2.132511e+001
780000000	-4.333952e+001	2.864212e+001	-3.876883e-002	-4.225824e+001	-3.876883e-002	-4.225824e+001	-4.492032e+001	1.924848e+001
790000000	-4.330674e+001	2.722111e+001	-3.839062e-002	-4.279529e+001	-3.839062e-002	-4.279529e+001	-4.497556e+001	2.084362e+001
800000000	-4.315221e+001	2.634205e+001	-3.937739e-002	-4.333910e+001	-3.937739e-002	-4.333910e+001	-4.478458e+001	1.928644e+001
810000000	-4.317732e+001	2.451223e+001	-3.931619e-002	-4.387895e+001	-3.931619e-002	-4.387895e+001	-4.510409e+001	1.968193e+001
820000000	-4.275950e+001	2.474278e+001	-3.926914e-002	-4.441419e+001	-3.926914e-002	-4.441419e+001	-4.468775e+001	2.089656e+001
830000000	-4.297690e+001	2.488432e+001	-3.964928e-002	-4.495784e+001	-3.964928e-002	-4.495784e+001	-4.465386e+001	1.820323e+001
840000000	-4.261257e+001	2.214144e+001	-4.070444e-002	-4.549602e+001	-4.070444e-002	-4.549602e+001	-4.467720e+001	1.820776e+001
850000000	-4.258602e+001	2.411973e+001	-4.046020e-002	-4.603506e+001	-4.046020e-002	-4.603506e+001	-4.474959e+001	1.662275e+001
860000000	-4.261798e+001	2.287901e+001	-4.078258e-002	-4.657651e+001	-4.078258e-002	-4.657651e+001	-4.485970e+001	1.766942e+001
870000000	-4.261075e+001	2.228198e+001	-4.145053e-002	-4.711683e+001	-4.145053e-002	-4.711683e+001	-4.470173e+001	1.726114e+001
880000000	-4.249326e+001	2.058149e+001	-4.159219e-002	-4.765689e+001	-4.159219e-002	-4.765689e+001	-4.469063e+001	1.653613e+001
890000000	-4.234577e+001	2.105747e+001	-4.180644e-002	-4.819493e+001	-4.180644e-002	-4.819493e+001	-4.480051e+001	1.637021e+001
900000000	-4.239218e+001	2.065371e+001	-4.176163e-002	-4.873880e+001	-4.176163e-002	-4.873880e+001	-4.452595e+001	1.694341e+001
910000000	-4.232158e+001	1.940150e+001	-4.270539e-002	-4.927628e+001	-4.270539e-002	-4.927628e+001	-4.464088e+001	1.352074e+001
920000000	-4.222533e+001	1.856510e+001	-4.304845e-002	-4.981850e+001	-4.304845e-002	-4.981850e+001	-4.494006e+001	1.672384e+001
930000000	-4.221379e+001	1.832419e+001	-4.276900e-002	-5.035516e+001	-4.276900e-002	-5.035516e+001	-4.428680e+001	1.532342e+001
940000000	-4.201157e+001	1.719333e+001	-4.373782e-002	-5.089750e+001	-4.373782e-002	-5.089750e+001	-4.472791e+001	1.225254e+001
950000000	-4.204144e+001	1.771755e+001	-4.362139e-002	-5.143459e+001	-4.362139e-002	-5.143459e+001	-4.483170e+001	1.480375e+001
960000000	-4.197525e+001	1.678169e+001	-4.433020e-002	-5.197258e+001	-4.433020e-002	-5.197258e+001	-4.463686e+001	1.390471e+001
970000000	-4.214821e+001	1.655577e+001	-4.468688e-002	-5.251353e+001	-4.468688e-002	-5.251353e+001	-4.480581e+001	1.425389e+001
980000000	-4.209379e+001	1.385772e+001	-4.436502e-002	-5.305444e+001	-4.436502e-002	-5.305444e+001	-4.449065e+001	1.515946e+001
990000000	-4.175072e+001	1.381033e+001	-4.496607e-002	-5.359760e+001	-4.496607e-002	-5.359760e+001	-4.438314e+001	1.307562e+001
1000000000	-4.176836e+001	1.409188e+001	-4.521004e-002	-5.413567e+001	-4.521004e-002	-5.413567e+001	-4.433773e+001	1.249593e+001
1010000000	-4.183891e+001	1.337871e+001	-4.596402e-002	-5.467114e+001	-4.596402e-002	-5.467114e+001	-4.448733e+001	9.999246e+000
1020000000	-4.185603e+001	1.138165e+001	-4.582997e-002	-5.521455e+001	-4.582997e-002	-5.521455e+001	-4.473340e+001	1.218200e+001
1030000000	-4.151885e+001	1.117272e+001	-4.574575e-002	-5.575240e+001	-4.574575e-002	-5.575240e+001	-4.436240e+001	1.106193e+001
1040000000	-4.156835e+001	1.184180e+001	-4.659136e-002	-5.629078e+001	-4.659136e-002	-5.629078e+001	-4.464840e+001	1.014950e+001
1050000000	-4.162980e+001	1.018428e+001	-4.686172e-002	-5.683067e+001	-4.686172e-002	-5.683067e+001	-4.452732e+001	1.054427e+001
1060000000	-4.150164e+001	9.701599e+000	-4.765823e-002	-5.737097e+001	-4.765823e-002	-5.737097e+001	-4.463303e+001	1.008930e+001
1070000000	-4.161463e+001	8.325525e+000	-4.780506e-002	-5.791036e+001	-4.780506e-002	-5.791036e+001	-4.446647e+001	1.024620e+001
1080000000	-4.135327e+001	7.141559e+000	-4.813499e-002	-5.845034e+001	-4.813499e-002	-5.845034e+001	-4.452077e+001	9.004796e+000
1090000000	-4.131326e+001	7.188129e+000	-4.837631e-002	-5.898871e+001	-4.837631e-002	-5.898871e+001	-4.448782e+001	8.761673e+000
1100000000	-4.120550e+001	6.672228e+000	-4.894157e-002	-5.952757e+001	-4.894157e-002	-5.952757e+001	-4.463548e+001	7.744069e+000
1110000000	-4.128127e+001	6.437647e+000	-4.920303e-002	-6.007106e+001	-4.920303e-002	-6.007106e+001	-4.468476e+001	8.716152e+000
1120000000	-4.121323e+001	5.216954e+000	-4.975536e-002	-6.060616e+001	-4.975536e-002	-6.060616e+001	-4.460302e+001	8.690593e+000
1130000000	-4.121488e+001	4.791789e+000	-4.957425e-002	-6.114732e+001	-4.957425e-002	-6.114732e+001	-4.445120e+001	8.480343e+000
1140000000	-4.107590e+001	4.170494e+000	-5.031524e-002	-6.168780e+001	-5.031524e-002	-6.168780e+001	-4.445899e+001	6.708270e+000
1150000000	-4.121914e+001	3.522902e+000	-5.065391e-002	-6.222553e+001	-5.065391e-002	-6.222553e+001	-4.461007e+001	7.134204e+000
1160000000	-4.097350e+001	2.228856e+000	-5.048982e-002	-6.276467e+001	-5.048982e-002	-6.276467e+001	-4.441513e+001	6.840955e+000
1170000000	-4.101491e+001	3.592088e+000	-5.164601e-002	-6.330283e+001	-5.164601e-002	-6.330283e+001	-4.450799e+001	5.436477e+000
1180000000	-4.135242e+001	1.192698e+000	-5.128591e-002	-6.384134e+001	-5.128591e-002	-6.384134e+001	-4.451747e+001	5.931535e+000
1190000000	-4.098806e+001	-6.116721e-001	-5.142647e-002	-6.438106e+001	-5.142647e-002	-6.438106e+001	-4.438022e+001	4.690138e+000
1200000000	-4.090075e+001	-1.476776e-001	-5.227049e-002	-6.491941e+001	-5.227049e-002	-6.491941e+001	-4.450430e+001	3.090170e+000
1210000000	-4.093766e+001	-1.370702e+000	-5.281396e-002	-6.546056e+001	-5.281396e-002	-6.546056e+001	-4.477309e+001	2.971765e+000
1220000000	-4.085622e+001	-1.656899e+000	-5.296080e-002	-6.600123e+001	-5.296080e-002	-6.600123e+001	-4.468320e+001	4.422743e+000
1230000000	-4.091639e+001	-2.494542e+000	-5.286025e-002	-6.653697e+001	-5.286025e-002	-6.653697e+001	-4.455671e+001	2.215095e+000
1240000000	-4.073688e+001	-3.236935e+000	-5.372790e-002	-6.707719e+001	-5.372790e-002	-6.707719e+001	-4.489667e+001	2.310307e+000
1250000000	-4.086265e+001	-3.438060e+000	-5.373781e-002	-6.761889e+001	-5.373781e-002	-6.761889e+001	-4.474093e+001	2.940841e+000
1260000000	-4.076302e+001	-4.745330e+000	-5.406271e-002	-6.815855e+001	-5.406271e-002	-6.815855e+001	-4.477378e+001	2.128302e+000
1270000000	-4.077351e+001	-4.933492e+000	-5.433998e-002	-6.869656e+001	-5.433998e-002	-6.869656e+001	-4.471258e+001	1.730900e+000
1280000000	-4.074753e+001	-6.123701e+000	-5.483189e-002	-6.923643e+001	-5.483189e-002	-6.923643e+001	-4.479104e+001	4.959491e-001
1290000000	-4.071025e+001	-6.707215e+000	-5.491711e-002	-6.977368e+001	-5.491711e-002	-6.977368e+001	-4.498179e+001	1.207500e-001
1300000000	-4.067712e+001	-6.975792e+000	-5.537320e-002	-7.031248e+001	-5.537320e-002	-7.031248e+001	-4.501727e+001	1.644832e+000
1310000000	-4.084593e+001	-8.195370e+000	-5.550248e-002	-7.085153e+001	-5.550248e-002	-7.085153e+001	-4.471512e+001	-5.840236e-002
1320000000	-4.062984e+001	-9.927917e+000	-5.576730e-002	-7.139316e+001	-5.576730e-002	-7.139316e+001	-4.521179e+001	-1.271892e+000
1330000000	-4.059702e+001	-9.530888e+000	-5.567436e-002	-7.193350e+001	-5.567436e-002	-7.193350e+001	-4.503935e+001	1.497575e+000
1340000000	-4.055907e+001	-1.062255e+001	-5.659781e-002	-7.246777e+001	-5.659781e-002	-7.246777e+001	-4.488113e+001	-6.716196e-001
1350000000	-4.061587e+001	-1.107451e+001	-5.648283e-002	-7.301107e+001	-5.648283e-002	-7.301107e+001	-4.495208e+001	-6.632517e-001
1360000000	-4.050160e+001	-1.255696e+001	-5.723512e-002	-7.354765e+001	-5.723512e-002	-7.354765e+001	-4.487936e+001	-2.217985e+000
1370000000	-4.046842e+001	-1.259160e+001	-5.753803e-002	-7.409031e+001	-5.753803e-002	-7.409031e+001	-4.507324e+001	-2.933948e+000
1380000000	-4.050475e+001	-1.359689e+001	-5.801496e-002	-7.462231e+001	-5.801496e-002	-7.462231e+001	-4.511905e+001	-3.163372e+000
1390000000	-4.047948e+001	-1.436580e+001	-5.756774e-002	-7.516620e+001	-5.756774e-002	-7.516620e+001	-4.516657e+001	-3.605479e+000
1400000000	-4.037361e+001	-1.474665e+001	-5.832619e-002	-7.570254e+001	-5.832619e-002	-7.570254e+001	-4.521204e+001	-4.551060e+000
1410000000	-4.049182e+001	-1.530622e+001	-5.845244e-002	-7.624618e+001	-5.845244e-002	-7.624618e+001	-4.543120e+001	-5.169136e+000
1420000000	-4.043538e+001	-1.648662e+001	-5.907072e-002	-7.678358e+001	-5.907072e-002	-7.678358e+001	-4.553410e+001	-4.390184e+000
1430000000	-4.051756e+001	-1.747754e+001	-5.872022e-002	-7.732168e+001	-5.872022e-002	-7.732168e+001	-4.551291e+001	-4.587722e+000
1440000000	-4.028300e+001	-1.835786e+001	-5.909147e-002	-7.786036e+001	-5.909147e-002	-7.786036e+001	-4.549861e+001	-4.512016e+000
1450000000	-4.042572e+001	-1.820040e+001	-5.933851e-002	-7.840076e+001	-5.933851e-002	-7.840076e+001	-4.546180e+001	-6.443162e+000
1460000000	-4.030519e+001	-2.004599e+001	-5.966576e-002	-7.893865e+001	-5.966576e-002	-7.893865e+001	-4.588535e+001	-6.372205e+000
1470000000	-4.032972e+001	-1.962702e+001	-6.000393e-002	-7.947799e+001	-6.000393e-002	-7.947799e+001	-4.572388e+001	-5.222743e+000
1480000000	-4.032219e+001	-2.153281e+001	-6.028845e-002	-8.001771e+001	-6.028845e-002	-8.001771e+001	-4.581119e+001	-6.272566e+000
1490000000	-4.025698e+001	-2.100578e+001	-5.992364e-002	-8.055637e+001	-5.992364e-002	-8.055637e+001	-4.575474e+001	-6.288599e+000
1500000000	-4.031588e+001	-2.262593e+001	-6.108110e-002	-8.109411e+001	-6.108110e-002	-8.109411e+001	-4.595210e+001	-7.166543e+000
1510000000	-4.022361e+001	-2.319331e+001	-6.124842e-002	-8.163170e+001	-6.124842e-002	-8.163170e+001	-4.579067e+001	-6.395762e+000
1520000000	-4.024076e+001	-2.389974e+001	-6.136241e-002	-8.217314e+001	-6.136241e-002	-8.217314e+001	-4.589863e+001	-9.038213e+000
1530000000	-4.017180e+001	-2.422201e+001	-6.176662e-002	-8.270932e+001	-6.176662e-002	-8.270932e+001	-4.606320e+001	-8.257164e+000
